# HZ S RI R 50
50000 0.851562496 -0.462331392 0.40917552 -0.487761568 -0.030264346 0.010172061 0.587957056 -0.691532544
347275 -0.010594255 -0.17715952 -2.835942272 -1.239153264 0.15802448 0.0843408 -0.0741106 0.027891012
644550 -0.01010183 -0.089160216 -3.09263396 -0.660412672 0.1751268 0.048706956 -0.01079021 0.033334428
941825 -0.008432714 -0.060183792 -3.148231504 -0.438080896 0.178775216 0.03599496 0.005058921 0.0279591
1239100 -0.007617477 -0.040838308 -3.170837872 -0.27570576 0.180614816 0.027708308 0.01177047 0.029380016
1536375 -0.006728155 -0.028034912 -3.177620416 -0.164886576 0.181648816 0.022841004 0.015551881 0.03163375
1833650 -0.005763379 -0.01858531 -3.178304192 -0.07815224 0.182243728 0.019324552 0.018412996 0.034327132
2130925 -0.004736395 -0.011543842 -3.175043824 -0.008186964 0.182729216 0.01680297 0.020825664 0.037136396
2428200 -0.003225647 -0.005760555 -3.16950512 0.052073316 0.18321328 0.015157233 0.022654354 0.03994614
2725475 -0.001717965 -0.000621166 -3.162004 0.10528236 0.183547952 0.013579075 0.024803532 0.043070804
3022750 -0.000481332 0.003671094 -3.15336704 0.15231128 0.183590864 0.012406406 0.026798144 0.0459346
3320025 0.001069722 0.007380187 -3.143762112 0.195299536 0.184084192 0.011502206 0.028709222 0.048785788
3617300 0.002669596 0.010488982 -3.133498432 0.23473152 0.184466256 0.010605084 0.03058668 0.051393788
3914575 0.004198992 0.013456608 -3.12315416 0.271825472 0.184639072 0.009963329 0.032598452 0.054098552
4211850 0.00576451 0.015906208 -3.111619472 0.306524 0.184905824 0.009281629 0.034559488 0.057028176
4509125 0.007231923 0.018077774 -3.100406408 0.338963968 0.18517968 0.008358777 0.036522536 0.059453256
4806400 0.008957862 0.02026228 -3.088490248 0.369650464 0.185326272 0.00797282 0.038576124 0.06208236
5103675 0.01041306 0.022052608 -3.076473 0.398699296 0.185744992 0.007401997 0.040335692 0.064443872
5400950 0.012128581 0.02381379 -3.0647223 0.427038176 0.185844368 0.007059413 0.042437752 0.06681598
5698225 0.013665158 0.02518213 -3.05252266 0.453042368 0.186069328 0.006487408 0.044406596 0.069102352
5995500 0.015228094 0.026679386 -3.040406468 0.478469568 0.186172064 0.006171074 0.046350664 0.07120264
6292775 0.01677534 0.027912864 -3.02805996 0.503177632 0.18633264 0.005653281 0.0483974 0.073343096
6590050 0.018276732 0.02896458 -3.015423298 0.527013536 0.18666288 0.005348124 0.050280452 0.0755602
6887325 0.01972422 0.030019426 -3.003175974 0.55028096 0.18694304 0.005028243 0.05226708 0.077533008
7184600 0.021359642 0.031049718 -2.99148416 0.5719584 0.187060528 0.004633512 0.054211536 0.079558128
7481875 0.022798546 0.031705496 -2.978789312 0.59377952 0.187064208 0.004290691 0.056278372 0.081514688
7779150 0.02408852 0.03255333 -2.966534848 0.614591168 0.187320272 0.003825359 0.058150664 0.08323468
8076425 0.025588736 0.033173074 -2.953966592 0.635042432 0.18760424 0.003630258 0.060145152 0.085182744
8373700 0.02696888 0.034020952 -2.941739328 0.65460896 0.187822768 0.003287095 0.062065268 0.086821272
8670975 0.028370216 0.034560804 -2.929545408 0.67382848 0.187911216 0.003007002 0.064039932 0.088163328
8968250 0.02960012 0.035014292 -2.917206976 0.692331776 0.187958576 0.002524808 0.065840312 0.090057448
9265525 0.030862362 0.035514496 -2.905169728 0.71030528 0.18821696 0.002256748 0.067648192 0.091641488
9562800 0.03227117 0.0359556 -2.893206336 0.728426752 0.188392 0.001947301 0.069504936 0.093164152
9860075 0.033522972 0.036150892 -2.881091328 0.745723456 0.188455888 0.001626568 0.071500024 0.094684256
10157350 0.03461534 0.036618864 -2.869084096 0.762826304 0.188570224 0.001251274 0.073317968 0.096234576
10454625 0.035856504 0.036876248 -2.857041344 0.779906816 0.188538192 0.00083579 0.075252768 0.097781704
10751900 0.037105368 0.036962368 -2.845179776 0.795609024 0.188883728 0.000684306 0.077070952 0.099208048
11049175 0.038278672 0.037326436 -2.833145856 0.81210848 0.188969856 0.000311319 0.078997504 0.100629448
11346450 0.039373296 0.037244748 -2.82130432 0.828135168 0.189077232 6.2137e-05 0.0806378 0.101691856
11643725 0.040575688 0.037700448 -2.809490432 0.842858944 0.189211088 -6.5882e-05 0.082650392 0.103082848
11941000 0.041544308 0.03759358 -2.797313664 0.858540672 0.189369424 -0.000656968 0.084494472 0.104437328
12238275 0.042767132 0.037731676 -2.785814016 0.87365696 0.189369968 -0.000851304 0.086211944 0.105608728
12535550 0.043810548 0.03780638 -2.7737584 0.88843328 0.18953064 -0.00122718 0.088040768 0.10685404
12832825 0.04478342 0.037922092 -2.762757312 0.902671424 0.189602368 -0.001448308 0.089830544 0.10805272
13130100 0.045694104 0.03771096 -2.750424832 0.91718816 0.189722896 -0.001813206 0.091594 0.109285568
13427375 0.046771896 0.037720256 -2.73895552 0.930800768 0.189728592 -0.001981702 0.093250208 0.110315688
13724650 0.047807952 0.037578932 -2.727958464 0.944643456 0.189932208 -0.002446851 0.095054368 0.1115608
14021925 0.04862962 0.037702744 -2.71610784 0.95863264 0.189964768 -0.002564449 0.096758928 0.112540584
14319200 0.04988832 0.037549072 -2.704418176 0.971725376 0.18991576 -0.003032542 0.098558624 0.113609072
14616475 0.050641196 0.037364172 -2.692529216 0.985172736 0.190084992 -0.003296218 0.10057712 0.114572664
14913750 0.051707636 0.0374589 -2.681028608 0.998268032 0.190178512 -0.003557287 0.102030152 0.115602816
15211025 0.052456056 0.03722666 -2.669556608 1.01089561 0.190346416 -0.003851389 0.103636472 0.116736648
15508300 0.053334596 0.037032484 -2.658384064 1.023450732 0.190271296 -0.004181508 0.105570976 0.117581744
15805575 0.054262772 0.036624024 -2.647452608 1.035934328 0.190359024 -0.004403404 0.10728132 0.118625888
16102850 0.055089412 0.036654456 -2.635613696 1.048820616 0.19047608 -0.004872332 0.109150256 0.119481336
16400125 0.055928528 0.036386064 -2.624620928 1.060861828 0.190471008 -0.004939433 0.110811288 0.120425216
16697400 0.056785544 0.036267232 -2.612910272 1.07260668 0.190439056 -0.005396183 0.112377376 0.121050608
16994675 0.057614992 0.035999176 -2.60173152 1.084743264 0.190431584 -0.005512568 0.114258048 0.122070664
17291950 0.058398956 0.03588736 -2.590647232 1.096510528 0.1907004 -0.005811215 0.115968888 0.122961512
17589225 0.059128092 0.035571612 -2.578945408 1.108590008 0.19064 -0.006180153 0.117512936 0.123543872
17886500 0.059948864 0.035323376 -2.567965056 1.120218992 0.190694384 -0.006441074 0.11955412 0.124317168
18183775 0.060814064 0.035082688 -2.556460864 1.130645512 0.19078152 -0.00670316 0.12115028 0.125146
18481050 0.061393608 0.03467272 -2.545516224 1.142551904 0.190783472 -0.007045225 0.122821224 0.125961992
18778325 0.062100944 0.034316832 -2.53379392 1.153351664 0.190999728 -0.007393769 0.124525464 0.126561832
19075600 0.062988656 0.03412898 -2.522542464 1.164660576 0.19098472 -0.007631824 0.126356272 0.127125216
19372875 0.063608648 0.033697024 -2.51134944 1.175573952 0.19088984 -0.007835913 0.127870888 0.127884688
19670150 0.0642114 0.033473626 -2.500267968 1.186067456 0.190868848 -0.00811383 0.129496112 0.1283814
19967425 0.064972616 0.03311224 -2.488830816 1.197129136 0.190960736 -0.008386903 0.131289992 0.129075456
20264700 0.065583832 0.032865712 -2.477812544 1.206931952 0.190950592 -0.008758363 0.132973 0.129539624
20561975 0.066370316 0.03252206 -2.466875808 1.217565296 0.19095928 -0.008892037 0.134538512 0.13030732
20859250 0.06685146 0.031915126 -2.455137024 1.22794664 0.190904256 -0.009320546 0.136324656 0.130840272
21156525 0.067573728 0.031781174 -2.444548384 1.238202688 0.191157408 -0.009603638 0.137939904 0.13136244
21453800 0.068138256 0.031292334 -2.432884928 1.24834168 0.191095152 -0.009830022 0.139638912 0.13196708
21751075 0.068526688 0.031083794 -2.42212176 1.258172752 0.191087408 -0.01014743 0.1411388 0.13219948
22048350 0.069353688 0.030608496 -2.410624256 1.268319376 0.191109344 -0.010546983 0.142715008 0.132792544
22345625 0.06989216 0.03021301 -2.399111744 1.277381536 0.191115536 -0.010713985 0.14443456 0.133278472
22642900 0.07055024 0.029871604 -2.388149504 1.287396544 0.191075536 -0.010973515 0.146141568 0.133629008
22940175 0.071159072 0.029466618 -2.376767392 1.296437504 0.191121392 -0.01136198 0.147674912 0.134101656
23237450 0.07148796 0.029071208 -2.365623008 1.306042304 0.19104264 -0.011624254 0.149474544 0.134352352
23534725 0.072351936 0.028706742 -2.355045088 1.315585856 0.191106 -0.011771568 0.1510008 0.1349236
23832000 0.072825488 0.028211414 -2.343227616 1.324280384 0.1911448 -0.01206675 0.152429568 0.135137536
24129275 0.073327224 0.027801586 -2.331970208 1.333613024 0.191235424 -0.012550616 0.153950592 0.135393856
24426550 0.07398116 0.02743904 -2.320095776 1.342545984 0.190947584 -0.012811613 0.155553856 0.135636208
24723825 0.074363264 0.02681719 -2.30907392 1.35189856 0.19101552 -0.012947257 0.1571112 0.13610752
25021100 0.074768864 0.02653946 -2.29788304 1.360101824 0.19108056 -0.013367363 0.158550272 0.136299296
25318375 0.075513288 0.026153746 -2.286491168 1.369326944 0.190902816 -0.013524055 0.160104576 0.136426624
25615650 0.076145184 0.025587702 -2.275078528 1.378007904 0.19098064 -0.013802982 0.161690832 0.136581536
25912925 0.07647148 0.02508618 -2.264079568 1.385859616 0.190895456 -0.014075546 0.162905216 0.136705376
26210200 0.07703024 0.024648436 -2.251863488 1.394590496 0.190765872 -0.014401211 0.164588064 0.136757344
26507475 0.077655512 0.024157994 -2.24050736 1.402469984 0.190863424 -0.014679522 0.166021936 0.136762848
26804750 0.078109056 0.02372334 -2.228983648 1.410796512 0.190816416 -0.01494052 0.167340432 0.136740256
27102025 0.078650632 0.023151096 -2.217369792 1.418722624 0.190715376 -0.015226846 0.16852144 0.136811232
27399300 0.079028344 0.022697824 -2.205719952 1.426726464 0.190596352 -0.015535244 0.169810512 0.136924272
27696575 0.079669296 0.021914856 -2.19347024 1.434308992 0.190609136 -0.015876463 0.171099328 0.136959376
27993850 0.080234128 0.021572316 -2.182508464 1.441717632 0.190541216 -0.016283758 0.172252976 0.13707864
28291125 0.080740104 0.02113749 -2.17008424 1.448959584 0.190517504 -0.016401191 0.173357344 0.13733424
28588400 0.081294184 0.020433254 -2.158632992 1.45621872 0.1902744 -0.016670039 0.174462192 0.13710088
28885675 0.081854816 0.019601472 -2.146798848 1.462786432 0.190156336 -0.017059266 0.17538624 0.13749544
29182950 0.082212448 0.01903013 -2.134248256 1.469030624 0.190092992 -0.017365266 0.176422896 0.137407152
29480225 0.082571408 0.018304558 -2.123606208 1.475185504 0.18997768 -0.017542452 0.1773008 0.137492992
29777500 0.08312524 0.017651336 -2.11102128 1.4812776 0.189988704 -0.017699278 0.178046384 0.137910096
30074775 0.083690368 0.0168296 -2.099392416 1.48707472 0.189771664 -0.01793681 0.17877616 0.13827432
30372050 0.08399552 0.016038545 -2.088335752 1.492055296 0.189528816 -0.018200014 0.179559552 0.138810944
30669325 0.084366232 0.014903686 -2.076636792 1.497199296 0.189599296 -0.018323266 0.180399328 0.13929272
30966600 0.084463256 0.014175738 -2.066197156 1.501318816 0.189304384 -0.018336988 0.181150928 0.140117312
31263875 0.084704928 0.013201062 -2.056810856 1.506827936 0.189347728 -0.01850754 0.18196696 0.140760048
31561150 0.084767896 0.012451816 -2.0461452 1.510952352 0.189153232 -0.018652896 0.183171376 0.141807232
31858425 0.084868296 0.01157341 -2.036123036 1.515646944 0.18914208 -0.01878546 0.184164384 0.142858112
32155700 0.084964984 0.010818346 -2.02710104 1.520353312 0.189028544 -0.018999472 0.185643504 0.143763744
32452975 0.084687928 0.009950187 -2.018186808 1.525832192 0.189222448 -0.019014014 0.186898144 0.14475208
32750250 0.084874152 0.009109795 -2.009304286 1.530545952 0.189022688 -0.019083546 0.188762176 0.145983808
33047525 0.084712904 0.008486763 -2.000878096 1.535799136 0.189172704 -0.019157156 0.19050648 0.146694512
33344800 0.084522584 0.007991407 -1.992053504 1.541725248 0.1889816 -0.019415346 0.192239296 0.147516832
33642075 0.084425736 0.00731531 -1.9830592 1.5473552 0.189092944 -0.019560894 0.19400728 0.148234848
33939350 0.084310952 0.00682653 -1.974811648 1.553008192 0.189164096 -0.01964121 0.196122528 0.14871552
34236625 0.084278208 0.006167978 -1.966023808 1.55938688 0.189079968 -0.02000694 0.198302112 0.149164768
34533900 0.08408324 0.005740453 -1.956495424 1.565336704 0.189093248 -0.020149352 0.200165776 0.149562752
34831175 0.083984464 0.005313388 -1.947844736 1.571398848 0.189246416 -0.020349624 0.202282944 0.149935552
35128450 0.083898784 0.004824177 -1.9385792 1.577464832 0.189246304 -0.02033597 0.204234992 0.150163392
35425725 0.084047368 0.004484727 -1.929328192 1.584497664 0.18931016 -0.020780946 0.206126736 0.150276016
35723000 0.083868984 0.004161467 -1.919633024 1.59007872 0.189286272 -0.021050318 0.208125264 0.150312624
36020275 0.08395384 0.003555743 -1.910878528 1.596898304 0.18920032 -0.021152344 0.210144736 0.150361648
36317550 0.083697368 0.00316754 -1.9010016 1.602638144 0.189311696 -0.021299732 0.211994656 0.150325936
36614825 0.083966872 0.002804406 -1.890618112 1.608029952 0.189224384 -0.021529864 0.213676 0.150320592
36912100 0.083659536 0.002413303 -1.881139072 1.615006912 0.189324784 -0.021840344 0.215602096 0.15000864
37209375 0.083827184 0.00180676 -1.871491072 1.62094496 0.189309856 -0.022169828 0.217589632 0.149956704
37506650 0.08370784 0.001330283 -1.861285312 1.626488192 0.18925504 -0.022408314 0.219291008 0.149911392
37803925 0.08379736 0.000794928 -1.851571072 1.633220416 0.189432352 -0.022642016 0.22094944 0.149517088
38101200 0.083797256 0.000600908 -1.841970176 1.63856864 0.189201488 -0.022948556 0.222841296 0.149433232
38398475 0.083887816 0.00010815 -1.83153856 1.64392448 0.189252096 -0.023138618 0.224358928 0.149113056
38695750 0.083783104 -0.000299244 -1.82220576 1.64957152 0.189210272 -0.023341728 0.226120208 0.148730704
38993025 0.083747104 -0.000785452 -1.811635264 1.655596608 0.189223536 -0.023537348 0.227838656 0.148545936
39290300 0.083808872 -0.001359249 -1.80138848 1.66076448 0.189144352 -0.023771866 0.22943896 0.14813288
39587575 0.083786624 -0.00169596 -1.792087296 1.66593888 0.189172544 -0.023914314 0.23108168 0.147875296
39884850 0.083912968 -0.00201021 -1.781921856 1.67159008 0.189040848 -0.024276918 0.2327284 0.14749488
40182125 0.083937912 -0.002564588 -1.771350272 1.676864128 0.189138912 -0.024489562 0.234518464 0.147258912
40479400 0.08393304 -0.003131149 -1.761629952 1.682032448 0.18918528 -0.024700504 0.23587096 0.146733232
40776675 0.083860008 -0.003460036 -1.751511232 1.686947328 0.1890856 -0.024912586 0.237550032 0.14631576
41073950 0.084002776 -0.004126228 -1.741358528 1.692596224 0.189017312 -0.025054388 0.239093888 0.146062336
41371225 0.083892432 -0.004586127 -1.730742592 1.696969152 0.18898096 -0.025428586 0.240638368 0.145639584
41668500 0.083856208 -0.004985336 -1.721184 1.702148416 0.188918592 -0.02554546 0.242110992 0.145204368
41965775 0.08388344 -0.005493323 -1.71125792 1.70763872 0.188909008 -0.02580481 0.243628848 0.144787968
42263050 0.083659488 -0.005910044 -1.700837632 1.711534272 0.188880368 -0.02599156 0.245064096 0.144439168
42560325 0.083653432 -0.006390712 -1.690855744 1.716139904 0.188810192 -0.026215908 0.246615712 0.144086384
42857600 0.083721544 -0.006696807 -1.68127456 1.721298816 0.188795984 -0.02664148 0.248202928 0.143620672
43154875 0.083425384 -0.007343245 -1.670341504 1.725616 0.188639616 -0.026699198 0.24964544 0.143142928
43452150 0.083578944 -0.007819147 -1.660530816 1.73014976 0.188705648 -0.027136332 0.25120056 0.142327376
43749425 0.083387064 -0.008187792 -1.650220288 1.73454976 0.188617952 -0.027458284 0.252517792 0.14198824
44046700 0.083310728 -0.008717588 -1.640367744 1.73874368 0.1886396 -0.027355454 0.253948832 0.141429552
44343975 0.083265768 -0.009037215 -1.630632384 1.743301248 0.188518544 -0.027844494 0.255567376 0.141009792
44641250 0.083103648 -0.009673017 -1.620555072 1.747762816 0.188451936 -0.027952184 0.256860592 0.140427568
44938525 0.083155872 -0.010252913 -1.609944 1.751777408 0.188269936 -0.02820039 0.258033568 0.139839616
45235800 0.083247 -0.010462055 -1.600089664 1.755790336 0.188496464 -0.02855335 0.259700768 0.139294848
45533075 0.083147032 -0.011093521 -1.590561856 1.760319232 0.18833312 -0.028653268 0.26098848 0.138673776
45830350 0.082884272 -0.011565087 -1.579815168 1.764521024 0.188344336 -0.028911334 0.26261344 0.138089472
46127625 0.08284512 -0.011963155 -1.570875392 1.767932992 0.188166352 -0.02908064 0.263728736 0.13761176
46424900 0.08276648 -0.01243066 -1.560108288 1.772164352 0.188172176 -0.029554936 0.265350096 0.137128816
46722175 0.0824866 -0.012827451 -1.549913152 1.775839424 0.188024816 -0.029448384 0.266633696 0.136356832
47019450 0.082468648 -0.013410135 -1.540073408 1.779507904 0.188100976 -0.029726846 0.267877728 0.13566896
47316725 0.082331672 -0.013740562 -1.530574784 1.783626816 0.187978384 -0.029967156 0.269134464 0.135003264
47614000 0.082159544 -0.014245926 -1.520432128 1.787295808 0.18791776 -0.030340482 0.270724096 0.134521728
47911275 0.082212688 -0.014645472 -1.5103264 1.790755136 0.187790096 -0.030524614 0.272098656 0.133814592
48208550 0.0820728 -0.015159244 -1.50023376 1.79421376 0.187927936 -0.030675956 0.273202784 0.133117096
48505825 0.081830736 -0.015692799 -1.490417472 1.798235904 0.187824208 -0.030935552 0.274595904 0.132346048
48803100 0.08159424 -0.016073678 -1.480248928 1.801411968 0.187685472 -0.031094924 0.275839392 0.131699216
49100375 0.081600648 -0.016386059 -1.471039904 1.804882048 0.187707696 -0.031324744 0.277126912 0.131237048
49397650 0.081441832 -0.016941954 -1.461072192 1.808875712 0.187669728 -0.03151302 0.278424096 0.130398256
49694925 0.081309856 -0.01740846 -1.450928704 1.811097728 0.187601344 -0.031881158 0.279752416 0.129559192
49992200 0.081195304 -0.017736822 -1.44107104 1.815205312 0.187602096 -0.03201361 0.281130688 0.12885368
50289475 0.080930984 -0.018360256 -1.43074704 1.818180672 0.187458688 -0.03239469 0.282305376 0.128103736
50586750 0.080859472 -0.018666234 -1.421097984 1.821322304 0.187295504 -0.032457426 0.28356176 0.12729764
50884025 0.080599304 -0.019151622 -1.411872992 1.824828736 0.18724592 -0.032843878 0.284792096 0.126442496
51181300 0.080549952 -0.019672624 -1.401354656 1.827727552 0.187076848 -0.033002698 0.286064864 0.125818056
51478575 0.08040292 -0.020076546 -1.391725664 1.830561728 0.187210112 -0.033159032 0.287261376 0.124834768
51775850 0.080379136 -0.020349694 -1.38185776 1.833681472 0.187060144 -0.033305914 0.288567008 0.124144968
52073125 0.079868032 -0.020987522 -1.371719968 1.836887936 0.18699464 -0.03356278 0.289612576 0.123529376
52370400 0.079901072 -0.02139151 -1.361720576 1.839763904 0.186957328 -0.033863632 0.290697312 0.122448984
52667675 0.079405576 -0.021791922 -1.352543104 1.842142208 0.18692096 -0.033984044 0.292017152 0.121715304
52964950 0.079549768 -0.02231951 -1.342354528 1.845361472 0.186893424 -0.034388836 0.293278496 0.120700152
53262225 0.079144496 -0.022762984 -1.332305088 1.848114752 0.186823392 -0.03468018 0.2943112 0.119953488
53559500 0.07907204 -0.023083084 -1.322682976 1.850244864 0.186571072 -0.034754192 0.295625984 0.11905668
53856775 0.07889788 -0.02358378 -1.312833184 1.853555776 0.186585328 -0.035019748 0.296711552 0.118019816
54154050 0.07854008 -0.024149436 -1.30322336 1.856026176 0.186599904 -0.035038044 0.297952384 0.117218528
54451325 0.078282096 -0.024407736 -1.293340672 1.858200192 0.186319568 -0.035479932 0.299004832 0.116307152
54748600 0.078134432 -0.024889088 -1.28361344 1.861167104 0.186499344 -0.035589944 0.300275328 0.11527128
55045875 0.077763752 -0.02538323 -1.273444544 1.863328832 0.18632024 -0.035845976 0.301361504 0.114324856
55343150 0.077844712 -0.025579848 -1.263751872 1.865565568 0.186312752 -0.036134708 0.302569248 0.113347664
55640425 0.077370344 -0.02595137 -1.2549864 1.868364096 0.186216128 -0.03636282 0.303613152 0.112696912
55937700 0.07716672 -0.026408504 -1.244402416 1.870585664 0.186252768 -0.03663032 0.304580192 0.111704096
56234975 0.07686564 -0.026756288 -1.234802608 1.872410048 0.186228016 -0.036780492 0.305729824 0.110703896
