!File created by NanoVNA
# Hz S RI R 50
1000000 -0.015109888 -0.043014012  0.978029888 -0.174513616 0 0 0 0
1247500 -0.019817072 -0.050839340  0.968248064 -0.215881872 0 0 0 0
1495000 -0.024755348 -0.057729132  0.956803072 -0.256807984 0 0 0 0
1742500 -0.030439804 -0.064363816  0.943475776 -0.296954112 0 0 0 0
1990000 -0.036145484 -0.069886600  0.928599680 -0.336376576 0 0 0 0
2237500 -0.042090776 -0.074534128  0.912014592 -0.374954112 0 0 0 0
2485000 -0.047998544 -0.078228640  0.893492096 -0.413034784 0 0 0 0
2732500 -0.053919832 -0.080811000  0.873773376 -0.450333536 0 0 0 0
2980000 -0.059923564 -0.082895200  0.852329472 -0.486411264 0 0 0 0
3227500 -0.065057844 -0.083455016  0.829096640 -0.522022720 0 0 0 0
3475000 -0.070132816 -0.083061680  0.804438464 -0.556655680 0 0 0 0
3722500 -0.074686256 -0.082017192  0.778319936 -0.589923712 0 0 0 0
3970000 -0.078184536 -0.080135296  0.750548224 -0.622464448 0 0 0 0
4217500 -0.080924008 -0.077255880  0.721113856 -0.653879040 0 0 0 0
4465000 -0.082829104 -0.073590680  0.689876736 -0.683898048 0 0 0 0
4712500 -0.083769416 -0.069343360  0.657380864 -0.712835648 0 0 0 0
4960000 -0.083328008 -0.064607584  0.623113920 -0.740396160 0 0 0 0
5207500 -0.081444560 -0.059523500  0.587273984 -0.766372864 0 0 0 0
5455000 -0.078423624 -0.053866616  0.550091328 -0.790695936 0 0 0 0
5702500 -0.073793624 -0.048165996  0.510820864 -0.813244928 0 0 0 0
5950000 -0.067432208 -0.042576752  0.470259200 -0.833862656 0 0 0 0
6197500 -0.059356332 -0.037207288  0.428586336 -0.852639680 0 0 0 0
6445000 -0.049892740 -0.032282382  0.385028288 -0.868973056 0 0 0 0
6692500 -0.038274716 -0.027943886  0.340455680 -0.883098368 0 0 0 0
6940000 -0.025070352 -0.024726360  0.294591680 -0.894724032 0 0 0 0
7187500 -0.009956289 -0.022423312  0.247858560 -0.903187008 0 0 0 0
7435000  0.006792666 -0.021756710  0.199815104 -0.908913344 0 0 0 0
7682500  0.024990244 -0.023041502  0.151347904 -0.911735744 0 0 0 0
7930000  0.044616656 -0.026080174  0.102826336 -0.910907392 0 0 0 0
8177500  0.065505216 -0.031424828  0.053851264 -0.906736320 0 0 0 0
8425000  0.087223144 -0.039591960  0.005309115 -0.899092416 0 0 0 0
8672500  0.109805784 -0.050343472 -0.043015544 -0.887901760 0 0 0 0
8920000  0.132232904 -0.064260588 -0.089979640 -0.873444864 0 0 0 0
9167500  0.154735664 -0.081563864 -0.135495920 -0.855180544 0 0 0 0
9415000  0.176771584 -0.102059968 -0.179407760 -0.833555712 0 0 0 0
9662500  0.197263024 -0.125669880 -0.221250368 -0.808748928 0 0 0 0
9910000  0.215885456 -0.152138640 -0.260306144 -0.780957312 0 0 0 0
10157500  0.232822992 -0.181740992 -0.296963904 -0.750740032 0 0 0 0
10405000  0.246733504 -0.213974256 -0.330170944 -0.717849344 0 0 0 0
10652500  0.257761184 -0.248080624 -0.360306016 -0.683142528 0 0 0 0
10900000  0.265516288 -0.284006944 -0.386998240 -0.646856576 0 0 0 0
11147500  0.269527424 -0.321321184 -0.409850240 -0.609554944 0 0 0 0
11395000  0.270309216 -0.359088512 -0.429563712 -0.571800704 0 0 0 0
11642500  0.267259264 -0.397115008 -0.445518080 -0.533596512 0 0 0 0
11890000  0.260508752 -0.434393376 -0.458107072 -0.495476544 0 0 0 0
12137500  0.250459248 -0.471050240 -0.467549024 -0.457641472 0 0 0 0
12385000  0.237181088 -0.506493760 -0.473778720 -0.420755104 0 0 0 0
12632500  0.221313376 -0.540355072 -0.476886080 -0.384955712 0 0 0 0
12880000  0.202750368 -0.571765760 -0.477648000 -0.350506944 0 0 0 0
13127500  0.181926640 -0.601697088 -0.475911584 -0.317297824 0 0 0 0
13375000  0.159002640 -0.628988672 -0.472274624 -0.285874080 0 0 0 0
13622500  0.135034288 -0.654067264 -0.466821984 -0.256281520 0 0 0 0
13870000  0.109994088 -0.676928320 -0.459720704 -0.228163904 0 0 0 0
14117500  0.084273816 -0.696918080 -0.451368448 -0.201910832 0 0 0 0
14365000  0.057637608 -0.715005120 -0.442060192 -0.177658928 0 0 0 0
14612500  0.030990762 -0.730921920 -0.431680288 -0.155150304 0 0 0 0
14860000  0.004139746 -0.744673728 -0.420515136 -0.134181944 0 0 0 0
15107500 -0.022526860 -0.756323776 -0.408955936 -0.114779728 0 0 0 0
15355000 -0.048990400 -0.766131776 -0.397204640 -0.097084840 0 0 0 0
15602500 -0.074765208 -0.774602368 -0.385129472 -0.080898504 0 0 0 0
15850000 -0.100362480 -0.781216896 -0.372936992 -0.066220052 0 0 0 0
16097500 -0.125131224 -0.786369408 -0.360591104 -0.052401172 0 0 0 0
16345000 -0.149610352 -0.790587904 -0.348187904 -0.040277680 0 0 0 0
16592500 -0.173059472 -0.793474816 -0.336338176 -0.029128186 0 0 0 0
16840000 -0.196044464 -0.795314176 -0.324404224 -0.019229638 0 0 0 0
17087500 -0.217901488 -0.796232192 -0.312706016 -0.010102720 0 0 0 0
17335000 -0.239387872 -0.796391488 -0.301277408 -0.001827279 0 0 0 0
17582500 -0.260259568 -0.795788736 -0.290133536  0.005419432 0 0 0 0
17830000 -0.279944832 -0.794295232 -0.279406848  0.011969848 0 0 0 0
18077500 -0.299433696 -0.792443968 -0.268840064  0.017759784 0 0 0 0
18325000 -0.317651008 -0.790101504 -0.258782096  0.023254738 0 0 0 0
18572500 -0.335632448 -0.787167680 -0.248975712  0.027825568 0 0 0 0
18820000 -0.352953632 -0.783986560 -0.239384464  0.032008038 0 0 0 0
19067500 -0.369491008 -0.780432512 -0.230468576  0.035694948 0 0 0 0
19315000 -0.385519840 -0.776620416 -0.221631696  0.039004268 0 0 0 0
19562500 -0.400771968 -0.772323520 -0.213114272  0.041801396 0 0 0 0
19810000 -0.415560704 -0.767771200 -0.205044096  0.044173856 0 0 0 0
20057500 -0.429965344 -0.763423168 -0.197331472  0.046616196 0 0 0 0
20305000 -0.443839456 -0.758565056 -0.189654016  0.048556624 0 0 0 0
20552500 -0.457126528 -0.753612160 -0.182515344  0.050026680 0 0 0 0
20800000 -0.469919776 -0.748677504 -0.175695136  0.051302836 0 0 0 0
21047500 -0.481822656 -0.743415680 -0.168946448  0.052446204 0 0 0 0
21295000 -0.493966400 -0.738204032 -0.162725424  0.053375816 0 0 0 0
21542500 -0.505145920 -0.732811840 -0.156726640  0.054150988 0 0 0 0
21790000 -0.516257216 -0.727540864 -0.150684000  0.054748872 0 0 0 0
22037500 -0.526887904 -0.722089088 -0.145305296  0.055428856 0 0 0 0
22285000 -0.537204288 -0.716652864 -0.139893504  0.055590328 0 0 0 0
22532500 -0.547258816 -0.711383232 -0.134728624  0.055868168 0 0 0 0
22780000 -0.556567488 -0.706085632 -0.129772576  0.055754812 0 0 0 0
23027500 -0.565932480 -0.700479232 -0.124932872  0.056027508 0 0 0 0
23275000 -0.574993664 -0.695047616 -0.120666592  0.055755212 0 0 0 0
23522500 -0.583595840 -0.689676416 -0.116143928  0.055728280 0 0 0 0
23770000 -0.591760832 -0.684042624 -0.112101496  0.055491444 0 0 0 0
24017500 -0.599979584 -0.678891136 -0.107961280  0.055205340 0 0 0 0
24265000 -0.607770496 -0.673430592 -0.104275224  0.054971436 0 0 0 0
24512500 -0.615563392 -0.668108864 -0.100542088  0.054510288 0 0 0 0
24760000 -0.622808704 -0.662925760 -0.097115304  0.054058852 0 0 0 0
25007500 -0.629827136 -0.657517760 -0.093763864  0.053476720 0 0 0 0
25255000 -0.636857408 -0.652109632 -0.090363152  0.053297352 0 0 0 0
25502500 -0.643498688 -0.647241408 -0.087428464  0.052674892 0 0 0 0
25750000 -0.649956736 -0.642078976 -0.084307088  0.052090384 0 0 0 0
25997500 -0.656373696 -0.636841280 -0.081327544  0.051473840 0 0 0 0
26245000 -0.662457536 -0.631798272 -0.078669344  0.051061408 0 0 0 0
26492500 -0.668152832 -0.626858752 -0.075944272  0.050270424 0 0 0 0
26740000 -0.674339392 -0.621975616 -0.073686200  0.049822616 0 0 0 0
26987500 -0.679516032 -0.616990656 -0.070971616  0.049164064 0 0 0 0
27235000 -0.685362176 -0.612135168 -0.068660800  0.048592428 0 0 0 0
27482500 -0.690668672 -0.607329600 -0.066703148  0.047884708 0 0 0 0
27730000 -0.695775360 -0.602560832 -0.064298972  0.047234972 0 0 0 0
27977500 -0.700680896 -0.598015040 -0.062142916  0.046607984 0 0 0 0
28225000 -0.705549632 -0.593222848 -0.060190712  0.046033708 0 0 0 0
28472500 -0.710535040 -0.588474112 -0.058442656  0.045231324 0 0 0 0
28720000 -0.715201472 -0.583930944 -0.056519608  0.044675008 0 0 0 0
28967500 -0.719735232 -0.579305792 -0.054666264  0.043966512 0 0 0 0
29215000 -0.724016960 -0.574997568 -0.052989572  0.043419552 0 0 0 0
29462500 -0.728169280 -0.570319872 -0.051277568  0.042870996 0 0 0 0
29710000 -0.732442496 -0.565934144 -0.049560092  0.042067592 0 0 0 0
29957500 -0.736315776 -0.561727424 -0.047993172  0.041382972 0 0 0 0
30205000 -0.740569152 -0.557760000 -0.046569684  0.040750492 0 0 0 0
30452500 -0.744427584 -0.553117568 -0.045263132  0.040307612 0 0 0 0
30700000 -0.748085376 -0.548906560 -0.043955052  0.039639864 0 0 0 0
30947500 -0.751982272 -0.544665664 -0.042509900  0.039037620 0 0 0 0
31195000 -0.755400000 -0.540838080 -0.041180192  0.038418904 0 0 0 0
31442500 -0.758753344 -0.536895680 -0.039972848  0.037847456 0 0 0 0
31690000 -0.762349440 -0.532827808 -0.038810376  0.037427216 0 0 0 0
31937500 -0.765778752 -0.528801376 -0.037593680  0.036764100 0 0 0 0
32185000 -0.769017792 -0.524878016 -0.036569204  0.036234120 0 0 0 0
32432500 -0.772157824 -0.521018432 -0.035299768  0.035669520 0 0 0 0
32680000 -0.775326336 -0.516987552 -0.034412752  0.035013300 0 0 0 0
32927500 -0.778346112 -0.513313280 -0.033599188  0.034390652 0 0 0 0
33175000 -0.781426112 -0.509509280 -0.032401230  0.034123744 0 0 0 0
33422500 -0.784161856 -0.505887392 -0.031462438  0.033369028 0 0 0 0
33670000 -0.787047296 -0.502169248 -0.030642326  0.032899782 0 0 0 0
33917500 -0.790102656 -0.498637568 -0.029820088  0.032278124 0 0 0 0
34165000 -0.792518272 -0.494913888 -0.028861328  0.031556856 0 0 0 0
34412500 -0.795425280 -0.491219424 -0.028083874  0.031336404 0 0 0 0
34660000 -0.798136128 -0.487827584 -0.027295736  0.030714144 0 0 0 0
34907500 -0.800373248 -0.484277440 -0.026295438  0.030238160 0 0 0 0
35155000 -0.803212928 -0.480786208 -0.025651602  0.029957424 0 0 0 0
35402500 -0.805416000 -0.477667232 -0.024920052  0.029396428 0 0 0 0
35650000 -0.807927936 -0.474050176 -0.024209976  0.028985518 0 0 0 0
35897500 -0.810383168 -0.470721120 -0.023556884  0.028392136 0 0 0 0
36145000 -0.812482304 -0.467348800 -0.022851408  0.027978472 0 0 0 0
36392500 -0.814933824 -0.464147264 -0.022405146  0.027430410 0 0 0 0
36640000 -0.817039040 -0.460978016 -0.021867492  0.027089364 0 0 0 0
36887500 -0.819160576 -0.457770656 -0.021217204  0.026816200 0 0 0 0
37135000 -0.821529024 -0.454445248 -0.020532128  0.026266198 0 0 0 0
37382500 -0.823718976 -0.451425152 -0.019958502  0.025828946 0 0 0 0
37630000 -0.825632704 -0.448466688 -0.019386950  0.025386438 0 0 0 0
37877500 -0.827487232 -0.445073120 -0.018870354  0.025058880 0 0 0 0
38125000 -0.829679744 -0.442244576 -0.018533954  0.024738248 0 0 0 0
38372500 -0.831747136 -0.439063232 -0.017967206  0.024264428 0 0 0 0
38620000 -0.833608832 -0.436036768 -0.017437086  0.023969852 0 0 0 0
38867500 -0.835328704 -0.433073568 -0.016978258  0.023583116 0 0 0 0
39115000 -0.837090304 -0.430320096 -0.016625053  0.023010624 0 0 0 0
39362500 -0.839161728 -0.427209824 -0.016159444  0.022785082 0 0 0 0
39610000 -0.840785088 -0.424382528 -0.015795760  0.022401482 0 0 0 0
39857500 -0.842463616 -0.421535520 -0.015290551  0.022214988 0 0 0 0
40105000 -0.844219456 -0.418752064 -0.014868927  0.021805842 0 0 0 0
40352500 -0.845928384 -0.415686400 -0.014493580  0.021485596 0 0 0 0
40600000 -0.847620928 -0.413149088 -0.014156295  0.020964846 0 0 0 0
40847500 -0.849142528 -0.410402528 -0.013550982  0.020766106 0 0 0 0
41095000 -0.850618368 -0.407664768 -0.013339775  0.020493026 0 0 0 0
41342500 -0.852064448 -0.404914048 -0.012900265  0.020104280 0 0 0 0
41590000 -0.853980352 -0.402262240 -0.012735044  0.019748126 0 0 0 0
41837500 -0.855380032 -0.399528192 -0.012419440  0.019484462 0 0 0 0
42085000 -0.856990848 -0.397065344 -0.012095061  0.019307914 0 0 0 0
42332500 -0.858473472 -0.394564256 -0.011876043  0.018921620 0 0 0 0
42580000 -0.859879232 -0.391745760 -0.011506444  0.018618656 0 0 0 0
42827500 -0.861309888 -0.389165632 -0.011254752  0.018343144 0 0 0 0
43075000 -0.862637184 -0.386961344 -0.010945010  0.018116368 0 0 0 0
43322500 -0.864155456 -0.384389152 -0.010752667  0.017942348 0 0 0 0
43570000 -0.865217344 -0.381863680 -0.010393600  0.017536970 0 0 0 0
43817500 -0.866766848 -0.379289120 -0.010300281  0.017266098 0 0 0 0
44065000 -0.868091648 -0.376907200 -0.009851277  0.017021786 0 0 0 0
44312500 -0.869282816 -0.374426464 -0.009721495  0.016908638 0 0 0 0
44560000 -0.870540608 -0.371871456 -0.009485822  0.016742642 0 0 0 0
44807500 -0.871943104 -0.369425536 -0.009168829  0.016198928 0 0 0 0
45055000 -0.872934656 -0.367497984 -0.008988942  0.016035617 0 0 0 0
45302500 -0.874157952 -0.364966368 -0.008642791  0.015721247 0 0 0 0
45550000 -0.875514240 -0.362689824 -0.008590505  0.015711088 0 0 0 0
45797500 -0.876518336 -0.360286592 -0.008265358  0.015443946 0 0 0 0
46045000 -0.877713792 -0.358115520 -0.008173846  0.014952283 0 0 0 0
46292500 -0.878723328 -0.355914048 -0.008042751  0.014847074 0 0 0 0
46540000 -0.880094976 -0.353731840 -0.007647947  0.014540073 0 0 0 0
46787500 -0.881031360 -0.351418624 -0.007622440  0.014515343 0 0 0 0
47035000 -0.882092480 -0.348987136 -0.007261954  0.014358001 0 0 0 0
47282500 -0.883146304 -0.346935264 -0.007221930  0.014109121 0 0 0 0
47530000 -0.884225920 -0.344865408 -0.007102806  0.013778436 0 0 0 0
47777500 -0.885341312 -0.342719904 -0.006831120  0.013697224 0 0 0 0
48025000 -0.886158912 -0.340280960 -0.006770180  0.013540167 0 0 0 0
48272500 -0.887714304 -0.338338688 -0.006429089  0.013296302 0 0 0 0
48520000 -0.888448256 -0.336232352 -0.006470485  0.013129367 0 0 0 0
48767500 -0.889358016 -0.334279936 -0.006240509  0.013134777 0 0 0 0
49015000 -0.890132096 -0.332081792 -0.006145627  0.012735984 0 0 0 0
49262500 -0.891034048 -0.330092544 -0.005966540  0.012492308 0 0 0 0
49510000 -0.892165760 -0.327851008 -0.005832748  0.012296538 0 0 0 0
49757500 -0.892837376 -0.325898016 -0.005594187  0.012118452 0 0 0 0
50005000 -0.893786048 -0.323880480 -0.005317955  0.012077620 0 0 0 0
50252500 -0.894967488 -0.322053152 -0.005372255  0.012030580 0 0 0 0
50500000 -0.895827264 -0.320011072 -0.005350903  0.011834267 0 0 0 0
50747500 -0.896632384 -0.318083200 -0.005002263  0.011494645 0 0 0 0
50995000 -0.897455616 -0.316147488 -0.004912115  0.011560282 0 0 0 0
51242500 -0.898310016 -0.314282848 -0.005142578  0.011497476 0 0 0 0
51490000 -0.899206272 -0.312255232 -0.005008585  0.011151678 0 0 0 0
51737500 -0.899990336 -0.310496896 -0.004642992  0.011100605 0 0 0 0
51985000 -0.900280576 -0.307285056 -0.004555449  0.010899839 0 0 0 0
52232500 -0.901342016 -0.306513056 -0.004606198  0.010543047 0 0 0 0
52480000 -0.902237056 -0.304584800 -0.004518037  0.010591725 0 0 0 0
52727500 -0.903041280 -0.302700480 -0.004477618  0.010363815 0 0 0 0
52975000 -0.903943424 -0.301040160 -0.004245586  0.010221858 0 0 0 0
53222500 -0.904849344 -0.299242080 -0.004136942  0.009936790 0 0 0 0
53470000 -0.905333312 -0.297428448 -0.004012601  0.009925647 0 0 0 0
53717500 -0.906158080 -0.295456544 -0.003792129  0.009734355 0 0 0 0
53965000 -0.906924928 -0.293836480 -0.003725448  0.009752656 0 0 0 0
54212500 -0.907765760 -0.291973344 -0.003808844  0.009590069 0 0 0 0
54460000 -0.908390848 -0.290306240 -0.003712556  0.009592002 0 0 0 0
54707500 -0.909165184 -0.288455040 -0.003559840  0.009381006 0 0 0 0
54955000 -0.909533696 -0.286571488 -0.003503772  0.009394660 0 0 0 0
55202500 -0.910473856 -0.284974688 -0.003503122  0.009066172 0 0 0 0
55450000 -0.911225216 -0.283675040 -0.003259234  0.008796049 0 0 0 0
55697500 -0.911704640 -0.281756128 -0.003279867  0.008812835 0 0 0 0
55945000 -0.912474880 -0.280022144 -0.003175350  0.008729683 0 0 0 0
56192500 -0.913075136 -0.278354720 -0.003010832  0.008651425 0 0 0 0
56440000 -0.913633600 -0.276667968 -0.003008922  0.008712289 0 0 0 0
56687500 -0.914239552 -0.274994528 -0.002966942  0.008390497 0 0 0 0
56935000 -0.915091712 -0.273072096 -0.002867723  0.008182165 0 0 0 0
57182500 -0.915487296 -0.271773888 -0.002603740  0.008196789 0 0 0 0
57430000 -0.916037376 -0.269882112 -0.002509124  0.008200367 0 0 0 0
57677500 -0.916682048 -0.268393008 -0.002658901  0.008019885 0 0 0 0
57925000 -0.917477120 -0.266731568 -0.002659466  0.007812161 0 0 0 0
58172500 -0.917998016 -0.265146320 -0.002550770  0.007598458 0 0 0 0
58420000 -0.918522496 -0.263752576 -0.002731100  0.007703952 0 0 0 0
58667500 -0.919110080 -0.261986160 -0.002478505  0.007709125 0 0 0 0
58915000 -0.919648576 -0.260419728 -0.002384478  0.007606503 0 0 0 0
59162500 -0.920415488 -0.258791472 -0.002398352  0.007438986 0 0 0 0
59410000 -0.920765632 -0.257353776 -0.002415401  0.007432021 0 0 0 0
59657500 -0.921239168 -0.255780064 -0.002174991  0.007205132 0 0 0 0
59905000 -0.921878208 -0.254008976 -0.002038474  0.007074564 0 0 0 0
60152500 -0.922532864 -0.252740656 -0.002218406  0.007050719 0 0 0 0
60400000 -0.923009600 -0.251311456 -0.002080220  0.007002197 0 0 0 0
60647500 -0.923547776 -0.249752160 -0.001959415  0.006885547 0 0 0 0
60895000 -0.924057344 -0.248343168 -0.002056152  0.006717627 0 0 0 0
61142500 -0.924530560 -0.246713696 -0.001820409  0.006818987 0 0 0 0
61390000 -0.925015872 -0.245258832 -0.001897110  0.006652730 0 0 0 0
61637500 -0.925570880 -0.243729392 -0.001966476  0.006459739 0 0 0 0
61885000 -0.926138496 -0.242469712 -0.001781357  0.006377676 0 0 0 0
62132500 -0.926538240 -0.240800688 -0.001719789  0.006388075 0 0 0 0
62380000 -0.927179072 -0.239583136 -0.001643632  0.006378511 0 0 0 0
62627500 -0.927593664 -0.237992016 -0.001702560  0.006376519 0 0 0 0
62875000 -0.928123968 -0.236636128 -0.001860762  0.006089232 0 0 0 0
63122500 -0.928543424 -0.235007040 -0.001607628  0.006127153 0 0 0 0
63370000 -0.929008960 -0.233669952 -0.001528560  0.006224211 0 0 0 0
63617500 -0.929457792 -0.232382528 -0.001623125  0.006130800 0 0 0 0
63865000 -0.929845440 -0.230817424 -0.001493127  0.006071476 0 0 0 0
64112500 -0.930253120 -0.229665760 -0.001470076  0.005703863 0 0 0 0
64360000 -0.930958336 -0.228276672 -0.001426271  0.005847106 0 0 0 0
64607500 -0.931192192 -0.226603952 -0.001483820  0.005621523 0 0 0 0
64855000 -0.931898880 -0.225451904 -0.001443944  0.005733764 0 0 0 0
65102500 -0.931887936 -0.224286048 -0.001308499  0.005607383 0 0 0 0
65350000 -0.932392448 -0.222964896 -0.001284733  0.005575696 0 0 0 0
65597500 -0.932755264 -0.221338848 -0.001274673  0.005445848 0 0 0 0
65845000 -0.933396800 -0.220226272 -0.001233571  0.005353973 0 0 0 0
66092500 -0.933636608 -0.218760656 -0.001202313  0.005448395 0 0 0 0
66340000 -0.934153984 -0.217605904 -0.001130252  0.005160185 0 0 0 0
66587500 -0.934465792 -0.216105264 -0.001218984  0.005340749 0 0 0 0
66835000 -0.934972800 -0.214855232 -0.001044487  0.005200692 0 0 0 0
67082500 -0.935212032 -0.213672848 -0.001009447  0.005040212 0 0 0 0
67330000 -0.935833344 -0.212317520 -0.000875867  0.005178887 0 0 0 0
67577500 -0.935992448 -0.211135440 -0.000963285  0.004952429 0 0 0 0
67825000 -0.936394816 -0.209755360 -0.000797489  0.004996944 0 0 0 0
68072500 -0.936997888 -0.208489520 -0.000976791  0.004835432 0 0 0 0
68320000 -0.937357184 -0.207296928 -0.000913230  0.004944425 0 0 0 0
68567500 -0.937593088 -0.205819296 -0.000862819  0.004873887 0 0 0 0
68815000 -0.937992576 -0.204436944 -0.000806632  0.004791366 0 0 0 0
69062500 -0.938349184 -0.203275824 -0.000793585  0.004868258 0 0 0 0
69310000 -0.938758080 -0.202205792 -0.000740287  0.004764321 0 0 0 0
69557500 -0.938902592 -0.201043072 -0.000868349  0.004617499 0 0 0 0
69805000 -0.939582016 -0.199825296 -0.000877639  0.004633777 0 0 0 0
70052500 -0.939704512 -0.198390048 -0.000865941  0.004701387 0 0 0 0
70300000 -0.940138048 -0.197383072 -0.000644238  0.004473527 0 0 0 0
70547500 -0.940214528 -0.196013504 -0.000557351  0.004442565 0 0 0 0
70795000 -0.940940032 -0.194791488 -0.000670358  0.004425710 0 0 0 0
71042500 -0.940885760 -0.193574928 -0.000795539  0.004383290 0 0 0 0
71290000 -0.941301120 -0.192420704 -0.000563192  0.004300568 0 0 0 0
71537500 -0.941855808 -0.191222912 -0.000613885  0.004261372 0 0 0 0
71785000 -0.941968064 -0.190025744 -0.000524499  0.004375061 0 0 0 0
72032500 -0.942386048 -0.188758992 -0.000742009  0.004029590 0 0 0 0
72280000 -0.942623168 -0.187742368 -0.000632506  0.004079469 0 0 0 0
